
T2900 000:484 SEGGER J-Link V4.40c Log File (0001ms, 0483ms total)
T2900 000:484 DLL Compiled: Jan 24 2012 09:30:33 (0001ms, 0483ms total)
T2900 000:484 Logging started @ 2014-06-16 10:42 (0001ms, 0483ms total)
T2900 000:485 JLINK_SetWarnOutHandler(...) (0000ms, 0484ms total)
T2900 000:485 JLINK_OpenEx(...)
Firmware: J-Link ARM V8 compiled Dec  6 2011 18:57:44
Hardware: V8.00
S/N: 17935099
Feature(s): RDI,FlashDL,FlashBP,JFlash  returns O.K. (0185ms, 0484ms total)
T2900 000:670 JLINK_SetErrorOutHandler(...) (0000ms, 0669ms total)
T2900 000:670 JLINK_ExecCommand("Device = STM32F417IG", ...)
                JLINK_ExecCommand("map ram 0x20000000 - 0x2001FFFF", ...)  returns 0x00 (0000ms, 0000ms total)
                JLINK_AddMirrorAreaEx(Addr = 0x00000000, Size = 0x00000000) (0000ms, 0000ms total)
              Device "STM32F417IG" selected (1024 KB flash, 128 KB RAM).  returns 0x00 (0004ms, 0669ms total)
T2900 000:676 JLINK_ExecCommand("ProjectFile = "D:\ÒÆ¶¯Æ½Ì¨ xiaohei\STM32 program\XiaoHei STM32 008\USER\JLinkSettings.ini"", ...)  returns 0x00 (0005ms, 0673ms total)
T2900 000:689 JLINK_ExecCommand("DisableConnectionTimeout", ...)  returns 0x00 (0000ms, 0678ms total)
T2900 000:689 JLINK_TIF_Select(JLINKARM_TIF_SWD)  returns 0x00 (0007ms, 0678ms total)
T2900 000:696 JLINK_SetSpeed(1000) (0001ms, 0685ms total)
T2900 000:697 JLINK_GetHardwareVersion()  returns 0x13880 (0000ms, 0686ms total)
T2900 000:697 JLINK_GetDLLVersion()  returns 44003 (0000ms, 0686ms total)
T2900 000:697 JLINK_GetFirmwareString(...) (0000ms, 0686ms total)
T2900 000:706 JLINK_GetDLLVersion()  returns 44003 (0000ms, 0686ms total)
T2900 000:706 JLINK_GetCompileDateTime() (0000ms, 0686ms total)
T2900 000:710 JLINK_GetFirmwareString(...) (0000ms, 0686ms total)
T2900 000:713 JLINK_GetHardwareVersion()  returns 0x13880 (0000ms, 0686ms total)
T2900 000:728 JLINK_GetId() >0x108 TIF>Found SWD-DP with ID 0x2BA01477 >0x33 TIF> >0x33 TIF> >0x35 TIF> >0x33 TIF> >0x33 TIF> >0x35 TIF> >0x33 TIF> >0x33 TIF> >0x35 TIF> >0x33 TIF> >0x33 TIF> >0x35 TIF> >0x33 TIF> >0x33 TIF> >0x35 TIF> >0x35 TIF> >0x35 TIF> >0x35 TIF> >0x35 TIF> >0x33 TIF> >0x33 TIF> >0x35 TIF> >0x35 TIF> >0x35 TIF> >0x33 TIF> >0x33 TIF> >0x33 TIF>TPIU fitted.ETM fitted. >0x35 TIF> >0x33 TIF> >0x33 TIF> >0x35 TIF> >0x33 TIF> >0x33 TIF>  FPUnit: 6 code (BP) slots and 2 literal slots
 >0x35 TIF> >0x33 TIF> >0x33 TIF> >0x35 TIF> >0x35 TIF> >0x35 TIF> >0x33 TIF> >0x33 TIF> >0x35 TIF> >0x33 TIF> >0x33 TIF> >0x35 TIF> >0x33 TIF> >0x33 TIF>Found Cortex-M4 r0p1, Little endian. >0x33 TIF>  returns 0x2BA01477 (0068ms, 0686ms total)
T2900 000:796 JLINK_GetDebugInfo(0x100) -- Value=0xE00FF003  returns 0x00 (0000ms, 0754ms total)
T2900 000:799 JLINK_ReadMem (0xE00FFFF0, 0x0010 Bytes, ...) -- CPU is running -- CPU_ReadMem(16 bytes @ 0xE00FFFF0) -- Data:  0D 00 00 00 10 00 00 00 05 00 00 00 B1 00 00 00  returns 0x00 (0003ms, 0754ms total)
T2900 000:802 JLINK_ReadMem (0xE00FFFD0, 0x0020 Bytes, ...) -- CPU is running -- CPU_ReadMem(32 bytes @ 0xE00FFFD0) -- Data:  00 00 00 00 00 00 00 00 00 00 00 00 00 00 00 00 ...  returns 0x00 (0002ms, 0757ms total)
T2900 000:804 JLINK_ReadMem (0xE00FF000, 0x0018 Bytes, ...) -- CPU is running -- CPU_ReadMem(24 bytes @ 0xE00FF000) -- Data:  03 F0 F0 FF 03 20 F0 FF 03 30 F0 FF 03 10 F0 FF ...  returns 0x00 (0002ms, 0759ms total)
T2900 000:806 JLINK_ReadMemU32(0xE000ED00, 0x0001 Items, ...) -- CPU is running -- CPU_ReadMem(4 bytes @ 0xE000ED00) -- Data:  41 C2 0F 41  returns 0x01 (0001ms, 0761ms total)
T2900 000:807 JLINK_ReadMemU32(0xE000EF40, 0x0001 Items, ...) -- CPU is running -- CPU_ReadMem(4 bytes @ 0xE000EF40) -- Data:  21 00 11 10  returns 0x01 (0001ms, 0762ms total)
T2900 000:808 JLINK_ReadMemU32(0xE000EF44, 0x0001 Items, ...) -- CPU is running -- CPU_ReadMem(4 bytes @ 0xE000EF44) -- Data:  11 00 00 11  returns 0x01 (0001ms, 0763ms total)
T2900 000:809 JLINK_SetResetType(JLINKARM_RESET_TYPE_NORMAL)  returns JLINKARM_RESET_TYPE_NORMAL (0000ms, 0764ms total)
T2900 000:809 JLINK_Reset() >0x108 TIF>Found SWD-DP with ID 0x2BA01477 >0x33 TIF> >0x33 TIF> >0x35 TIF> >0x33 TIF> >0x35 TIF> >0x33 TIF> >0x33 TIF> >0x35 TIF> >0x33 TIF> >0x33 TIF> >0x35 TIF> >0x33 TIF> >0x33 TIF> >0x35 TIF> >0x33 TIF> >0x33 TIF> >0x35 TIF> >0x35 TIF> >0x35 TIF> >0x35 TIF> >0x35 TIF> >0x33 TIF> >0x33 TIF> >0x35 TIF> >0x33 TIF> >0x33 TIF> >0x33 TIF>TPIU fitted.ETM fitted. >0x35 TIF> >0x33 TIF> >0x33 TIF> >0x35 TIF> >0x33 TIF> >0x33 TIF>  FPUnit: 6 code (BP) slots and 2 literal slots
 >0x35 TIF> >0x33 TIF> >0x33 TIF> >0x35 TIF> >0x33 TIF> >0x33 TIF> >0x35 TIF> >0x33 TIF> >0x33 TIF> >0x35 TIF> >0x33 TIF> >0x33 TIF>Found Cortex-M4 r0p1, Little endian. (0079ms, 0764ms total)
T2900 000:888 JLINK_Halt()  returns 0x00 (0000ms, 0843ms total)
T2900 000:888 JLINK_IsHalted()  returns TRUE (0000ms, 0843ms total)
T2900 000:888 JLINK_ReadMemU32(0xE000EDF0, 0x0001 Items, ...) -- CPU_ReadMem(4 bytes @ 0xE000EDF0) -- Data:  03 00 03 00  returns 0x01 (0001ms, 0843ms total)
T2900 000:889 JLINK_WriteU32(0xE000EDF0, 0xA05F0003) -- CPU_WriteMem(4 bytes @ 0xE000EDF0)  returns 0x00 (0001ms, 0844ms total)
T2900 000:890 JLINK_WriteU32(0xE000EDFC, 0x01000000) -- CPU_WriteMem(4 bytes @ 0xE000EDFC)  returns 0x00 (0001ms, 0845ms total)
T2900 000:901 JLINK_GetHWStatus(...)  returns 0x00 (0001ms, 0846ms total)
T2900 000:909 JLINK_GetNumBPUnits(Type = 0xFFFFFF00)  returns 0x06 (0000ms, 0847ms total)
T2900 000:909 JLINK_GetNumBPUnits(Type = 0xF0)  returns 0x2000 (0000ms, 0847ms total)
T2900 000:909 JLINK_GetNumWPUnits()  returns 0x04 (0000ms, 0847ms total)
T2900 000:918 JLINK_GetSpeed()  returns 0x3E8 (0000ms, 0847ms total)
T2900 000:923 JLINK_ReadMemU32(0xE000E004, 0x0001 Items, ...) -- CPU_ReadMem(4 bytes @ 0xE000E004) -- Data:  02 00 00 00  returns 0x01 (0001ms, 0847ms total)
T2900 000:924 JLINK_ReadMemU32(0xE000E004, 0x0001 Items, ...) -- CPU_ReadMem(4 bytes @ 0xE000E004) -- Data:  02 00 00 00  returns 0x01 (0001ms, 0848ms total)
T2900 000:925 JLINK_WriteMem(0xE0001000, 0x001C Bytes, ...) -- Data:  01 00 00 00 00 00 00 00 00 00 00 00 00 00 00 00 ... -- CPU_WriteMem(28 bytes @ 0xE0001000)  returns 0x1C (0002ms, 0849ms total)
T2900 000:927 JLINK_ReadMem (0xE0001000, 0x001C Bytes, ...) -- CPU_ReadMem(28 bytes @ 0xE0001000) -- Data:  01 00 00 40 00 00 00 00 00 00 00 00 00 00 00 00 ...  returns 0x00 (0002ms, 0851ms total)
T2900 000:929 JLINK_Halt()  returns 0x00 (0000ms, 0853ms total)
T2900 000:929 JLINK_IsHalted()  returns TRUE (0000ms, 0853ms total)
T2900 000:972 JLINK_WriteMem(0x20000000, 0x0180 Bytes, ...) -- Data:  00 BE 0A E0 0D 78 2D 06 68 40 08 24 40 00 00 D3 ... -- CPU_WriteMem(384 bytes @ 0x20000000)  returns 0x180 (0009ms, 0853ms total)
T2900 000:981 JLINK_WriteReg(R0, 0x08000000)  returns 0x00 (0000ms, 0862ms total)
T2900 000:981 JLINK_WriteReg(R1, 0x017D7840)  returns 0x00 (0000ms, 0862ms total)
T2900 000:981 JLINK_WriteReg(R2, 0x00000001)  returns 0x00 (0000ms, 0862ms total)
T2900 000:981 JLINK_WriteReg(R3, 0x00000000)  returns 0x00 (0000ms, 0862ms total)
T2900 000:981 JLINK_WriteReg(R4, 0x00000000)  returns 0x00 (0000ms, 0862ms total)
T2900 000:981 JLINK_WriteReg(R5, 0x00000000)  returns 0x00 (0000ms, 0862ms total)
T2900 000:981 JLINK_WriteReg(R6, 0x00000000)  returns 0x00 (0000ms, 0862ms total)
T2900 000:981 JLINK_WriteReg(R7, 0x00000000)  returns 0x00 (0000ms, 0862ms total)
T2900 000:981 JLINK_WriteReg(R8, 0x00000000)  returns 0x00 (0001ms, 0862ms total)
T2900 000:982 JLINK_WriteReg(R9, 0x2000017C)  returns 0x00 (0000ms, 0863ms total)
T2900 000:982 JLINK_WriteReg(R10, 0x00000000)  returns 0x00 (0000ms, 0863ms total)
T2900 000:982 JLINK_WriteReg(R11, 0x00000000)  returns 0x00 (0000ms, 0863ms total)
T2900 000:982 JLINK_WriteReg(R12, 0x00000000)  returns 0x00 (0000ms, 0863ms total)
T2900 000:982 JLINK_WriteReg(R13, 0x20000800)  returns 0x00 (0000ms, 0863ms total)
T2900 000:982 JLINK_WriteReg(R14, 0x20000001)  returns 0x00 (0000ms, 0863ms total)
T2900 000:982 JLINK_WriteReg(R15, 0x20000054)  returns 0x00 (0000ms, 0863ms total)
T2900 000:982 JLINK_WriteReg(XPSR, 0x01000000)  returns 0x00 (0000ms, 0863ms total)
T2900 000:982 JLINK_WriteReg(MSP, 0x20000800)  returns 0x00 (0000ms, 0863ms total)
T2900 000:982 JLINK_WriteReg(PSP, 0x20000800)  returns 0x00 (0000ms, 0863ms total)
T2900 000:982 JLINK_WriteReg(CFBP, 0x00000000)  returns 0x00 (0000ms, 0863ms total)
T2900 000:982 JLINK_SetBPEx(Addr = 0x20000000, Type = 0xFFFFFFF2) -- CPU_ReadMem(2 bytes @ 0x20000000)  returns 0x00000001 (0002ms, 0863ms total)
T2900 000:984 JLINK_Go() -- CPU_WriteMem(2 bytes @ 0x20000000) -- CPU_WriteMem(4 bytes @ 0xE0002008) -- CPU_WriteMem(4 bytes @ 0xE000200C) -- CPU_WriteMem(4 bytes @ 0xE0002010) -- CPU_WriteMem(4 bytes @ 0xE0002014) -- CPU_WriteMem(4 bytes @ 0xE0002018) -- CPU_WriteMem(4 bytes @ 0xE000201C) (0011ms, 0865ms total)
T2900 000:995 JLINK_IsHalted() -- CPU_ReadMem(2 bytes @ 0x20000000)  returns TRUE (0007ms, 0876ms total)
T2900 001:002 JLINK_ReadReg(R15)  returns 0x20000000 (0001ms, 0876ms total)
T2900 001:003 JLINK_ClrBPEx(BPHandle = 0x00000001)  returns 0x00 (0000ms, 0877ms total)
T2900 001:003 JLINK_ReadReg(R0)  returns 0x00000000 (0000ms, 0877ms total)
T2900 001:004 JLINK_WriteReg(R0, 0x08000000)  returns 0x00 (0000ms, 0877ms total)
T2900 001:004 JLINK_WriteReg(R1, 0x00004000)  returns 0x00 (0000ms, 0877ms total)
T2900 001:004 JLINK_WriteReg(R2, 0x000000FF)  returns 0x00 (0000ms, 0877ms total)
T2900 001:004 JLINK_WriteReg(R3, 0x00000000)  returns 0x00 (0000ms, 0877ms total)
T2900 001:004 JLINK_WriteReg(R4, 0x00000000)  returns 0x00 (0000ms, 0877ms total)
T2900 001:004 JLINK_WriteReg(R5, 0x00000000)  returns 0x00 (0000ms, 0877ms total)
T2900 001:004 JLINK_WriteReg(R6, 0x00000000)  returns 0x00 (0000ms, 0877ms total)
T2900 001:004 JLINK_WriteReg(R7, 0x00000000)  returns 0x00 (0000ms, 0877ms total)
T2900 001:004 JLINK_WriteReg(R8, 0x00000000)  returns 0x00 (0000ms, 0877ms total)
T2900 001:004 JLINK_WriteReg(R9, 0x2000017C)  returns 0x00 (0000ms, 0877ms total)
T2900 001:004 JLINK_WriteReg(R10, 0x00000000)  returns 0x00 (0000ms, 0877ms total)
T2900 001:004 JLINK_WriteReg(R11, 0x00000000)  returns 0x00 (0000ms, 0877ms total)
T2900 001:004 JLINK_WriteReg(R12, 0x00000000)  returns 0x00 (0000ms, 0877ms total)
T2900 001:004 JLINK_WriteReg(R13, 0x20000800)  returns 0x00 (0000ms, 0877ms total)
T2900 001:004 JLINK_WriteReg(R14, 0x20000001)  returns 0x00 (0000ms, 0877ms total)
T2900 001:004 JLINK_WriteReg(R15, 0x20000020)  returns 0x00 (0000ms, 0877ms total)
T2900 001:004 JLINK_WriteReg(XPSR, 0x01000000)  returns 0x00 (0001ms, 0877ms total)
T2900 001:005 JLINK_WriteReg(MSP, 0x20000800)  returns 0x00 (0000ms, 0878ms total)
T2900 001:005 JLINK_WriteReg(PSP, 0x20000800)  returns 0x00 (0000ms, 0878ms total)
T2900 001:005 JLINK_WriteReg(CFBP, 0x00000000)  returns 0x00 (0000ms, 0878ms total)
T2900 001:005 JLINK_SetBPEx(Addr = 0x20000000, Type = 0xFFFFFFF2)  returns 0x00000002 (0000ms, 0878ms total)
T2900 001:005 JLINK_Go() -- CPU_WriteMem(4 bytes @ 0xE0002008) -- CPU_WriteMem(4 bytes @ 0xE000200C) -- CPU_WriteMem(4 bytes @ 0xE0002010) -- CPU_WriteMem(4 bytes @ 0xE0002014) -- CPU_WriteMem(4 bytes @ 0xE0002018) -- CPU_WriteMem(4 bytes @ 0xE000201C) (0009ms, 0878ms total)
T2900 001:014 JLINK_IsHalted() -- CPU_ReadMem(2 bytes @ 0x20000000)  returns TRUE (0007ms, 0887ms total)
T2900 001:022 JLINK_ReadReg(R15)  returns 0x20000000 (0000ms, 0887ms total)
T2900 001:022 JLINK_ClrBPEx(BPHandle = 0x00000002)  returns 0x00 (0000ms, 0887ms total)
T2900 001:022 JLINK_ReadReg(R0)  returns 0x00000001 (0000ms, 0887ms total)
T2900 001:022 JLINK_WriteReg(R0, 0x08000000)  returns 0x00 (0000ms, 0887ms total)
T2900 001:022 JLINK_WriteReg(R1, 0x00004000)  returns 0x00 (0000ms, 0887ms total)
T2900 001:022 JLINK_WriteReg(R2, 0x000000FF)  returns 0x00 (0000ms, 0887ms total)
T2900 001:022 JLINK_WriteReg(R3, 0x00000000)  returns 0x00 (0000ms, 0887ms total)
T2900 001:022 JLINK_WriteReg(R4, 0x00000000)  returns 0x00 (0000ms, 0887ms total)
T2900 001:022 JLINK_WriteReg(R5, 0x00000000)  returns 0x00 (0000ms, 0887ms total)
T2900 001:022 JLINK_WriteReg(R6, 0x00000000)  returns 0x00 (0000ms, 0887ms total)
T2900 001:022 JLINK_WriteReg(R7, 0x00000000)  returns 0x00 (0000ms, 0887ms total)
T2900 001:022 JLINK_WriteReg(R8, 0x00000000)  returns 0x00 (0000ms, 0887ms total)
T2900 001:022 JLINK_WriteReg(R9, 0x2000017C)  returns 0x00 (0000ms, 0887ms total)
T2900 001:022 JLINK_WriteReg(R10, 0x00000000)  returns 0x00 (0001ms, 0887ms total)
T2900 001:023 JLINK_WriteReg(R11, 0x00000000)  returns 0x00 (0000ms, 0888ms total)
T2900 001:023 JLINK_WriteReg(R12, 0x00000000)  returns 0x00 (0000ms, 0888ms total)
T2900 001:023 JLINK_WriteReg(R13, 0x20000800)  returns 0x00 (0000ms, 0888ms total)
T2900 001:023 JLINK_WriteReg(R14, 0x20000001)  returns 0x00 (0000ms, 0888ms total)
T2900 001:023 JLINK_WriteReg(R15, 0x200000BC)  returns 0x00 (0000ms, 0888ms total)
T2900 001:023 JLINK_WriteReg(XPSR, 0x01000000)  returns 0x00 (0000ms, 0888ms total)
T2900 001:023 JLINK_WriteReg(MSP, 0x20000800)  returns 0x00 (0000ms, 0888ms total)
T2900 001:023 JLINK_WriteReg(PSP, 0x20000800)  returns 0x00 (0000ms, 0888ms total)
T2900 001:023 JLINK_WriteReg(CFBP, 0x00000000)  returns 0x00 (0000ms, 0888ms total)
T2900 001:023 JLINK_SetBPEx(Addr = 0x20000000, Type = 0xFFFFFFF2)  returns 0x00000003 (0000ms, 0888ms total)
T2900 001:023 JLINK_Go() -- CPU_WriteMem(4 bytes @ 0xE0002008) -- CPU_WriteMem(4 bytes @ 0xE000200C) -- CPU_WriteMem(4 bytes @ 0xE0002010) -- CPU_WriteMem(4 bytes @ 0xE0002014) -- CPU_WriteMem(4 bytes @ 0xE0002018) -- CPU_WriteMem(4 bytes @ 0xE000201C) (0010ms, 0888ms total)
T2900 001:033 JLINK_IsHalted()  returns FALSE (0001ms, 0898ms total)
T2900 001:084 JLINK_IsHalted()  returns FALSE (0001ms, 0898ms total)
T2900 001:135 JLINK_IsHalted()  returns FALSE (0001ms, 0898ms total)
T2900 001:186 JLINK_IsHalted()  returns FALSE (0001ms, 0898ms total)
T2900 001:237 JLINK_IsHalted()  returns FALSE (0001ms, 0898ms total)
T2900 001:288 JLINK_IsHalted()  returns FALSE (0001ms, 0898ms total)
T2900 001:339 JLINK_IsHalted()  returns FALSE (0001ms, 0898ms total)
T2900 001:390 JLINK_IsHalted()  returns FALSE (0001ms, 0898ms total)
T2900 001:441 JLINK_IsHalted() -- CPU_ReadMem(2 bytes @ 0x20000000)  returns TRUE (0007ms, 0898ms total)
T2900 001:448 JLINK_ReadReg(R15)  returns 0x20000000 (0000ms, 0898ms total)
T2900 001:448 JLINK_ClrBPEx(BPHandle = 0x00000003)  returns 0x00 (0000ms, 0898ms total)
T2900 001:448 JLINK_ReadReg(R0)  returns 0x00000000 (0000ms, 0898ms total)
T2900 001:449 JLINK_WriteReg(R0, 0x08004000)  returns 0x00 (0000ms, 0898ms total)
T2900 001:449 JLINK_WriteReg(R1, 0x00004000)  returns 0x00 (0000ms, 0898ms total)
T2900 001:449 JLINK_WriteReg(R2, 0x000000FF)  returns 0x00 (0000ms, 0898ms total)
T2900 001:449 JLINK_WriteReg(R3, 0x00000000)  returns 0x00 (0000ms, 0898ms total)
T2900 001:449 JLINK_WriteReg(R4, 0x00000000)  returns 0x00 (0000ms, 0898ms total)
T2900 001:449 JLINK_WriteReg(R5, 0x00000000)  returns 0x00 (0000ms, 0898ms total)
T2900 001:449 JLINK_WriteReg(R6, 0x00000000)  returns 0x00 (0000ms, 0898ms total)
T2900 001:449 JLINK_WriteReg(R7, 0x00000000)  returns 0x00 (0000ms, 0898ms total)
T2900 001:449 JLINK_WriteReg(R8, 0x00000000)  returns 0x00 (0000ms, 0898ms total)
T2900 001:449 JLINK_WriteReg(R9, 0x2000017C)  returns 0x00 (0000ms, 0898ms total)
T2900 001:449 JLINK_WriteReg(R10, 0x00000000)  returns 0x00 (0000ms, 0898ms total)
T2900 001:449 JLINK_WriteReg(R11, 0x00000000)  returns 0x00 (0000ms, 0898ms total)
T2900 001:449 JLINK_WriteReg(R12, 0x00000000)  returns 0x00 (0000ms, 0898ms total)
T2900 001:449 JLINK_WriteReg(R13, 0x20000800)  returns 0x00 (0000ms, 0898ms total)
T2900 001:450 JLINK_WriteReg(R14, 0x20000001)  returns 0x00 (0000ms, 0899ms total)
T2900 001:450 JLINK_WriteReg(R15, 0x20000020)  returns 0x00 (0000ms, 0899ms total)
T2900 001:450 JLINK_WriteReg(XPSR, 0x01000000)  returns 0x00 (0000ms, 0899ms total)
T2900 001:450 JLINK_WriteReg(MSP, 0x20000800)  returns 0x00 (0000ms, 0899ms total)
T2900 001:450 JLINK_WriteReg(PSP, 0x20000800)  returns 0x00 (0000ms, 0899ms total)
T2900 001:450 JLINK_WriteReg(CFBP, 0x00000000)  returns 0x00 (0000ms, 0899ms total)
T2900 001:450 JLINK_SetBPEx(Addr = 0x20000000, Type = 0xFFFFFFF2)  returns 0x00000004 (0000ms, 0899ms total)
T2900 001:450 JLINK_Go() -- CPU_WriteMem(4 bytes @ 0xE0002008) -- CPU_WriteMem(4 bytes @ 0xE000200C) -- CPU_WriteMem(4 bytes @ 0xE0002010) -- CPU_WriteMem(4 bytes @ 0xE0002014) -- CPU_WriteMem(4 bytes @ 0xE0002018) -- CPU_WriteMem(4 bytes @ 0xE000201C) (0009ms, 0899ms total)
T2900 001:459 JLINK_IsHalted() -- CPU_ReadMem(2 bytes @ 0x20000000)  returns TRUE (0007ms, 0908ms total)
T2900 001:466 JLINK_ReadReg(R15)  returns 0x20000000 (0000ms, 0908ms total)
T2900 001:466 JLINK_ClrBPEx(BPHandle = 0x00000004)  returns 0x00 (0000ms, 0908ms total)
T2900 001:466 JLINK_ReadReg(R0)  returns 0x00000001 (0000ms, 0908ms total)
T2900 001:466 JLINK_WriteReg(R0, 0x08004000)  returns 0x00 (0000ms, 0908ms total)
T2900 001:466 JLINK_WriteReg(R1, 0x00004000)  returns 0x00 (0000ms, 0908ms total)
T2900 001:466 JLINK_WriteReg(R2, 0x000000FF)  returns 0x00 (0000ms, 0908ms total)
T2900 001:466 JLINK_WriteReg(R3, 0x00000000)  returns 0x00 (0000ms, 0908ms total)
T2900 001:466 JLINK_WriteReg(R4, 0x00000000)  returns 0x00 (0000ms, 0908ms total)
T2900 001:466 JLINK_WriteReg(R5, 0x00000000)  returns 0x00 (0000ms, 0908ms total)
T2900 001:466 JLINK_WriteReg(R6, 0x00000000)  returns 0x00 (0000ms, 0908ms total)
T2900 001:466 JLINK_WriteReg(R7, 0x00000000)  returns 0x00 (0000ms, 0908ms total)
T2900 001:466 JLINK_WriteReg(R8, 0x00000000)  returns 0x00 (0000ms, 0908ms total)
T2900 001:466 JLINK_WriteReg(R9, 0x2000017C)  returns 0x00 (0001ms, 0908ms total)
T2900 001:467 JLINK_WriteReg(R10, 0x00000000)  returns 0x00 (0000ms, 0909ms total)
T2900 001:467 JLINK_WriteReg(R11, 0x00000000)  returns 0x00 (0000ms, 0909ms total)
T2900 001:467 JLINK_WriteReg(R12, 0x00000000)  returns 0x00 (0000ms, 0909ms total)
T2900 001:467 JLINK_WriteReg(R13, 0x20000800)  returns 0x00 (0000ms, 0909ms total)
T2900 001:467 JLINK_WriteReg(R14, 0x20000001)  returns 0x00 (0000ms, 0909ms total)
T2900 001:467 JLINK_WriteReg(R15, 0x200000BC)  returns 0x00 (0000ms, 0909ms total)
T2900 001:467 JLINK_WriteReg(XPSR, 0x01000000)  returns 0x00 (0000ms, 0909ms total)
T2900 001:467 JLINK_WriteReg(MSP, 0x20000800)  returns 0x00 (0000ms, 0909ms total)
T2900 001:467 JLINK_WriteReg(PSP, 0x20000800)  returns 0x00 (0000ms, 0909ms total)
T2900 001:467 JLINK_WriteReg(CFBP, 0x00000000)  returns 0x00 (0000ms, 0909ms total)
T2900 001:467 JLINK_SetBPEx(Addr = 0x20000000, Type = 0xFFFFFFF2)  returns 0x00000005 (0000ms, 0909ms total)
T2900 001:467 JLINK_Go() -- CPU_WriteMem(4 bytes @ 0xE0002008) -- CPU_WriteMem(4 bytes @ 0xE000200C) -- CPU_WriteMem(4 bytes @ 0xE0002010) -- CPU_WriteMem(4 bytes @ 0xE0002014) -- CPU_WriteMem(4 bytes @ 0xE0002018) -- CPU_WriteMem(4 bytes @ 0xE000201C) (0009ms, 0909ms total)
T2900 001:476 JLINK_IsHalted()  returns FALSE (0001ms, 0918ms total)
T2900 001:527 JLINK_IsHalted()  returns FALSE (0001ms, 0918ms total)
T2900 001:578 JLINK_IsHalted()  returns FALSE (0001ms, 0918ms total)
T2900 001:629 JLINK_IsHalted()  returns FALSE (0001ms, 0918ms total)
T2900 001:680 JLINK_IsHalted()  returns FALSE (0001ms, 0918ms total)
T2900 001:731 JLINK_IsHalted()  returns FALSE (0001ms, 0918ms total)
T2900 001:782 JLINK_IsHalted()  returns FALSE (0001ms, 0918ms total)
T2900 001:833 JLINK_IsHalted()  returns FALSE (0001ms, 0918ms total)
T2900 001:884 JLINK_IsHalted() -- CPU_ReadMem(2 bytes @ 0x20000000)  returns TRUE (0007ms, 0918ms total)
T2900 001:891 JLINK_ReadReg(R15)  returns 0x20000000 (0000ms, 0918ms total)
T2900 001:891 JLINK_ClrBPEx(BPHandle = 0x00000005)  returns 0x00 (0000ms, 0918ms total)
T2900 001:891 JLINK_ReadReg(R0)  returns 0x00000000 (0000ms, 0918ms total)
T2900 001:892 JLINK_WriteReg(R0, 0x08008000)  returns 0x00 (0000ms, 0918ms total)
T2900 001:892 JLINK_WriteReg(R1, 0x00004000)  returns 0x00 (0000ms, 0918ms total)
T2900 001:892 JLINK_WriteReg(R2, 0x000000FF)  returns 0x00 (0000ms, 0918ms total)
T2900 001:892 JLINK_WriteReg(R3, 0x00000000)  returns 0x00 (0000ms, 0918ms total)
T2900 001:892 JLINK_WriteReg(R4, 0x00000000)  returns 0x00 (0000ms, 0918ms total)
T2900 001:892 JLINK_WriteReg(R5, 0x00000000)  returns 0x00 (0000ms, 0918ms total)
T2900 001:892 JLINK_WriteReg(R6, 0x00000000)  returns 0x00 (0000ms, 0918ms total)
T2900 001:892 JLINK_WriteReg(R7, 0x00000000)  returns 0x00 (0000ms, 0918ms total)
T2900 001:892 JLINK_WriteReg(R8, 0x00000000)  returns 0x00 (0000ms, 0918ms total)
T2900 001:892 JLINK_WriteReg(R9, 0x2000017C)  returns 0x00 (0000ms, 0918ms total)
T2900 001:892 JLINK_WriteReg(R10, 0x00000000)  returns 0x00 (0000ms, 0918ms total)
T2900 001:892 JLINK_WriteReg(R11, 0x00000000)  returns 0x00 (0000ms, 0918ms total)
T2900 001:892 JLINK_WriteReg(R12, 0x00000000)  returns 0x00 (0000ms, 0918ms total)
T2900 001:892 JLINK_WriteReg(R13, 0x20000800)  returns 0x00 (0000ms, 0918ms total)
T2900 001:892 JLINK_WriteReg(R14, 0x20000001)  returns 0x00 (0000ms, 0918ms total)
T2900 001:892 JLINK_WriteReg(R15, 0x20000020)  returns 0x00 (0000ms, 0918ms total)
T2900 001:892 JLINK_WriteReg(XPSR, 0x01000000)  returns 0x00 (0000ms, 0918ms total)
T2900 001:892 JLINK_WriteReg(MSP, 0x20000800)  returns 0x00 (0000ms, 0918ms total)
T2900 001:892 JLINK_WriteReg(PSP, 0x20000800)  returns 0x00 (0000ms, 0918ms total)
T2900 001:892 JLINK_WriteReg(CFBP, 0x00000000)  returns 0x00 (0000ms, 0918ms total)
T2900 001:892 JLINK_SetBPEx(Addr = 0x20000000, Type = 0xFFFFFFF2)  returns 0x00000006 (0000ms, 0918ms total)
T2900 001:892 JLINK_Go() -- CPU_WriteMem(4 bytes @ 0xE0002008) -- CPU_WriteMem(4 bytes @ 0xE000200C) -- CPU_WriteMem(4 bytes @ 0xE0002010) -- CPU_WriteMem(4 bytes @ 0xE0002014) -- CPU_WriteMem(4 bytes @ 0xE0002018) -- CPU_WriteMem(4 bytes @ 0xE000201C) (0010ms, 0918ms total)
T2900 001:902 JLINK_IsHalted() -- CPU_ReadMem(2 bytes @ 0x20000000)  returns TRUE (0007ms, 0928ms total)
T2900 001:909 JLINK_ReadReg(R15)  returns 0x20000000 (0000ms, 0928ms total)
T2900 001:909 JLINK_ClrBPEx(BPHandle = 0x00000006)  returns 0x00 (0000ms, 0928ms total)
T2900 001:909 JLINK_ReadReg(R0)  returns 0x00000001 (0000ms, 0928ms total)
T2900 001:909 JLINK_WriteReg(R0, 0x08008000)  returns 0x00 (0000ms, 0928ms total)
T2900 001:909 JLINK_WriteReg(R1, 0x00004000)  returns 0x00 (0000ms, 0928ms total)
T2900 001:909 JLINK_WriteReg(R2, 0x000000FF)  returns 0x00 (0000ms, 0928ms total)
T2900 001:909 JLINK_WriteReg(R3, 0x00000000)  returns 0x00 (0000ms, 0928ms total)
T2900 001:909 JLINK_WriteReg(R4, 0x00000000)  returns 0x00 (0000ms, 0928ms total)
T2900 001:909 JLINK_WriteReg(R5, 0x00000000)  returns 0x00 (0000ms, 0928ms total)
T2900 001:909 JLINK_WriteReg(R6, 0x00000000)  returns 0x00 (0000ms, 0928ms total)
T2900 001:909 JLINK_WriteReg(R7, 0x00000000)  returns 0x00 (0001ms, 0928ms total)
T2900 001:910 JLINK_WriteReg(R8, 0x00000000)  returns 0x00 (0000ms, 0929ms total)
T2900 001:910 JLINK_WriteReg(R9, 0x2000017C)  returns 0x00 (0000ms, 0929ms total)
T2900 001:910 JLINK_WriteReg(R10, 0x00000000)  returns 0x00 (0000ms, 0929ms total)
T2900 001:910 JLINK_WriteReg(R11, 0x00000000)  returns 0x00 (0000ms, 0929ms total)
T2900 001:910 JLINK_WriteReg(R12, 0x00000000)  returns 0x00 (0000ms, 0929ms total)
T2900 001:910 JLINK_WriteReg(R13, 0x20000800)  returns 0x00 (0000ms, 0929ms total)
T2900 001:910 JLINK_WriteReg(R14, 0x20000001)  returns 0x00 (0000ms, 0929ms total)
T2900 001:910 JLINK_WriteReg(R15, 0x200000BC)  returns 0x00 (0000ms, 0929ms total)
T2900 001:910 JLINK_WriteReg(XPSR, 0x01000000)  returns 0x00 (0000ms, 0929ms total)
T2900 001:910 JLINK_WriteReg(MSP, 0x20000800)  returns 0x00 (0000ms, 0929ms total)
T2900 001:910 JLINK_WriteReg(PSP, 0x20000800)  returns 0x00 (0000ms, 0929ms total)
T2900 001:910 JLINK_WriteReg(CFBP, 0x00000000)  returns 0x00 (0000ms, 0929ms total)
T2900 001:910 JLINK_SetBPEx(Addr = 0x20000000, Type = 0xFFFFFFF2)  returns 0x00000007 (0000ms, 0929ms total)
T2900 001:910 JLINK_Go() -- CPU_WriteMem(4 bytes @ 0xE0002008) -- CPU_WriteMem(4 bytes @ 0xE000200C) -- CPU_WriteMem(4 bytes @ 0xE0002010) -- CPU_WriteMem(4 bytes @ 0xE0002014) -- CPU_WriteMem(4 bytes @ 0xE0002018) -- CPU_WriteMem(4 bytes @ 0xE000201C) (0009ms, 0929ms total)
T2900 001:919 JLINK_IsHalted()  returns FALSE (0001ms, 0938ms total)
T2900 001:970 JLINK_IsHalted()  returns FALSE (0001ms, 0938ms total)
T2900 002:021 JLINK_IsHalted()  returns FALSE (0002ms, 0938ms total)
T2900 002:074 JLINK_IsHalted()  returns FALSE (0001ms, 0938ms total)
T2900 002:125 JLINK_IsHalted()  returns FALSE (0001ms, 0938ms total)
T2900 002:176 JLINK_IsHalted()  returns FALSE (0002ms, 0938ms total)
T2900 002:228 JLINK_IsHalted()  returns FALSE (0001ms, 0938ms total)
T2900 002:279 JLINK_IsHalted()  returns FALSE (0001ms, 0938ms total)
T2900 002:330 JLINK_IsHalted() -- CPU_ReadMem(2 bytes @ 0x20000000)  returns TRUE (0007ms, 0938ms total)
T2900 002:337 JLINK_ReadReg(R15)  returns 0x20000000 (0000ms, 0938ms total)
T2900 002:337 JLINK_ClrBPEx(BPHandle = 0x00000007)  returns 0x00 (0000ms, 0938ms total)
T2900 002:337 JLINK_ReadReg(R0)  returns 0x00000000 (0000ms, 0938ms total)
T2900 002:337 JLINK_WriteReg(R0, 0x00000001)  returns 0x00 (0000ms, 0938ms total)
T2900 002:338 JLINK_WriteReg(R1, 0x00004000)  returns 0x00 (0000ms, 0939ms total)
T2900 002:338 JLINK_WriteReg(R2, 0x000000FF)  returns 0x00 (0000ms, 0939ms total)
T2900 002:338 JLINK_WriteReg(R3, 0x00000000)  returns 0x00 (0000ms, 0939ms total)
T2900 002:338 JLINK_WriteReg(R4, 0x00000000)  returns 0x00 (0000ms, 0939ms total)
T2900 002:338 JLINK_WriteReg(R5, 0x00000000)  returns 0x00 (0000ms, 0939ms total)
T2900 002:338 JLINK_WriteReg(R6, 0x00000000)  returns 0x00 (0000ms, 0939ms total)
T2900 002:338 JLINK_WriteReg(R7, 0x00000000)  returns 0x00 (0000ms, 0939ms total)
T2900 002:338 JLINK_WriteReg(R8, 0x00000000)  returns 0x00 (0000ms, 0939ms total)
T2900 002:338 JLINK_WriteReg(R9, 0x2000017C)  returns 0x00 (0000ms, 0939ms total)
T2900 002:338 JLINK_WriteReg(R10, 0x00000000)  returns 0x00 (0000ms, 0939ms total)
T2900 002:338 JLINK_WriteReg(R11, 0x00000000)  returns 0x00 (0000ms, 0939ms total)
T2900 002:338 JLINK_WriteReg(R12, 0x00000000)  returns 0x00 (0000ms, 0939ms total)
T2900 002:338 JLINK_WriteReg(R13, 0x20000800)  returns 0x00 (0000ms, 0939ms total)
T2900 002:338 JLINK_WriteReg(R14, 0x20000001)  returns 0x00 (0000ms, 0939ms total)
T2900 002:338 JLINK_WriteReg(R15, 0x20000082)  returns 0x00 (0000ms, 0939ms total)
T2900 002:338 JLINK_WriteReg(XPSR, 0x01000000)  returns 0x00 (0000ms, 0939ms total)
T2900 002:338 JLINK_WriteReg(MSP, 0x20000800)  returns 0x00 (0000ms, 0939ms total)
T2900 002:338 JLINK_WriteReg(PSP, 0x20000800)  returns 0x00 (0000ms, 0939ms total)
T2900 002:338 JLINK_WriteReg(CFBP, 0x00000000)  returns 0x00 (0000ms, 0939ms total)
T2900 002:338 JLINK_SetBPEx(Addr = 0x20000000, Type = 0xFFFFFFF2)  returns 0x00000008 (0000ms, 0939ms total)
T2900 002:338 JLINK_Go() -- CPU_WriteMem(4 bytes @ 0xE0002008) -- CPU_WriteMem(4 bytes @ 0xE000200C) -- CPU_WriteMem(4 bytes @ 0xE0002010) -- CPU_WriteMem(4 bytes @ 0xE0002014) -- CPU_WriteMem(4 bytes @ 0xE0002018) -- CPU_WriteMem(4 bytes @ 0xE000201C) (0010ms, 0939ms total)
T2900 002:348 JLINK_IsHalted() -- CPU_ReadMem(2 bytes @ 0x20000000)  returns TRUE (0007ms, 0949ms total)
T2900 002:355 JLINK_ReadReg(R15)  returns 0x20000000 (0000ms, 0949ms total)
T2900 002:355 JLINK_ClrBPEx(BPHandle = 0x00000008)  returns 0x00 (0000ms, 0949ms total)
T2900 002:355 JLINK_ReadReg(R0)  returns 0x00000000 (0000ms, 0949ms total)
T2900 002:410 JLINK_WriteMem(0x20000000, 0x0180 Bytes, ...) -- Data:  00 BE 0A E0 0D 78 2D 06 68 40 08 24 40 00 00 D3 ... -- CPU_WriteMem(384 bytes @ 0x20000000)  returns 0x180 (0009ms, 0949ms total)
T2900 002:419 JLINK_WriteReg(R0, 0x08000000)  returns 0x00 (0000ms, 0958ms total)
T2900 002:419 JLINK_WriteReg(R1, 0x017D7840)  returns 0x00 (0000ms, 0958ms total)
T2900 002:419 JLINK_WriteReg(R2, 0x00000002)  returns 0x00 (0000ms, 0958ms total)
T2900 002:419 JLINK_WriteReg(R3, 0x00000000)  returns 0x00 (0000ms, 0958ms total)
T2900 002:419 JLINK_WriteReg(R4, 0x00000000)  returns 0x00 (0000ms, 0958ms total)
T2900 002:419 JLINK_WriteReg(R5, 0x00000000)  returns 0x00 (0000ms, 0958ms total)
T2900 002:419 JLINK_WriteReg(R6, 0x00000000)  returns 0x00 (0000ms, 0958ms total)
T2900 002:419 JLINK_WriteReg(R7, 0x00000000)  returns 0x00 (0000ms, 0958ms total)
T2900 002:419 JLINK_WriteReg(R8, 0x00000000)  returns 0x00 (0000ms, 0958ms total)
T2900 002:419 JLINK_WriteReg(R9, 0x2000017C)  returns 0x00 (0001ms, 0958ms total)
T2900 002:420 JLINK_WriteReg(R10, 0x00000000)  returns 0x00 (0000ms, 0959ms total)
T2900 002:420 JLINK_WriteReg(R11, 0x00000000)  returns 0x00 (0000ms, 0959ms total)
T2900 002:420 JLINK_WriteReg(R12, 0x00000000)  returns 0x00 (0000ms, 0959ms total)
T2900 002:420 JLINK_WriteReg(R13, 0x20000800)  returns 0x00 (0000ms, 0959ms total)
T2900 002:420 JLINK_WriteReg(R14, 0x20000001)  returns 0x00 (0000ms, 0959ms total)
T2900 002:420 JLINK_WriteReg(R15, 0x20000054)  returns 0x00 (0000ms, 0959ms total)
T2900 002:420 JLINK_WriteReg(XPSR, 0x01000000)  returns 0x00 (0000ms, 0959ms total)
T2900 002:420 JLINK_WriteReg(MSP, 0x20000800)  returns 0x00 (0000ms, 0959ms total)
T2900 002:420 JLINK_WriteReg(PSP, 0x20000800)  returns 0x00 (0000ms, 0959ms total)
T2900 002:420 JLINK_WriteReg(CFBP, 0x00000000)  returns 0x00 (0000ms, 0959ms total)
T2900 002:420 JLINK_SetBPEx(Addr = 0x20000000, Type = 0xFFFFFFF2) -- CPU_ReadMem(2 bytes @ 0x20000000)  returns 0x00000009 (0001ms, 0959ms total)
T2900 002:421 JLINK_Go() -- CPU_WriteMem(2 bytes @ 0x20000000) -- CPU_WriteMem(4 bytes @ 0xE0002008) -- CPU_WriteMem(4 bytes @ 0xE000200C) -- CPU_WriteMem(4 bytes @ 0xE0002010) -- CPU_WriteMem(4 bytes @ 0xE0002014) -- CPU_WriteMem(4 bytes @ 0xE0002018) -- CPU_WriteMem(4 bytes @ 0xE000201C) (0010ms, 0960ms total)
T2900 002:431 JLINK_IsHalted() -- CPU_ReadMem(2 bytes @ 0x20000000)  returns TRUE (0007ms, 0970ms total)
T2900 002:438 JLINK_ReadReg(R15)  returns 0x20000000 (0000ms, 0970ms total)
T2900 002:438 JLINK_ClrBPEx(BPHandle = 0x00000009)  returns 0x00 (0000ms, 0970ms total)
T2900 002:438 JLINK_ReadReg(R0)  returns 0x00000000 (0000ms, 0970ms total)
T2900 002:438 JLINK_WriteMem(0x20000180, 0x0400 Bytes, ...) -- Data:  48 06 00 20 71 2E 00 08 E5 02 00 08 E7 02 00 08 ... -- CPU_WriteMem(1024 bytes @ 0x20000180)  returns 0x400 (0020ms, 0970ms total)
T2900 002:458 JLINK_WriteReg(R0, 0x08000000)  returns 0x00 (0000ms, 0990ms total)
T2900 002:458 JLINK_WriteReg(R1, 0x00000400)  returns 0x00 (0000ms, 0990ms total)
T2900 002:458 JLINK_WriteReg(R2, 0x20000180)  returns 0x00 (0000ms, 0990ms total)
T2900 002:458 JLINK_WriteReg(R3, 0x00000000)  returns 0x00 (0000ms, 0990ms total)
T2900 002:458 JLINK_WriteReg(R4, 0x00000000)  returns 0x00 (0000ms, 0990ms total)
T2900 002:458 JLINK_WriteReg(R5, 0x00000000)  returns 0x00 (0000ms, 0990ms total)
T2900 002:458 JLINK_WriteReg(R6, 0x00000000)  returns 0x00 (0000ms, 0990ms total)
T2900 002:458 JLINK_WriteReg(R7, 0x00000000)  returns 0x00 (0000ms, 0990ms total)
T2900 002:458 JLINK_WriteReg(R8, 0x00000000)  returns 0x00 (0000ms, 0990ms total)
T2900 002:458 JLINK_WriteReg(R9, 0x2000017C)  returns 0x00 (0000ms, 0990ms total)
T2900 002:458 JLINK_WriteReg(R10, 0x00000000)  returns 0x00 (0000ms, 0990ms total)
T2900 002:458 JLINK_WriteReg(R11, 0x00000000)  returns 0x00 (0000ms, 0990ms total)
T2900 002:458 JLINK_WriteReg(R12, 0x00000000)  returns 0x00 (0000ms, 0990ms total)
T2900 002:458 JLINK_WriteReg(R13, 0x20000800)  returns 0x00 (0001ms, 0990ms total)
T2900 002:459 JLINK_WriteReg(R14, 0x20000001)  returns 0x00 (0000ms, 0991ms total)
T2900 002:459 JLINK_WriteReg(R15, 0x20000108)  returns 0x00 (0000ms, 0991ms total)
T2900 002:459 JLINK_WriteReg(XPSR, 0x01000000)  returns 0x00 (0000ms, 0991ms total)
T2900 002:459 JLINK_WriteReg(MSP, 0x20000800)  returns 0x00 (0000ms, 0991ms total)
T2900 002:459 JLINK_WriteReg(PSP, 0x20000800)  returns 0x00 (0000ms, 0991ms total)
T2900 002:459 JLINK_WriteReg(CFBP, 0x00000000)  returns 0x00 (0000ms, 0991ms total)
T2900 002:459 JLINK_SetBPEx(Addr = 0x20000000, Type = 0xFFFFFFF2)  returns 0x0000000A (0000ms, 0991ms total)
T2900 002:459 JLINK_Go() -- CPU_WriteMem(4 bytes @ 0xE0002008) -- CPU_WriteMem(4 bytes @ 0xE000200C) -- CPU_WriteMem(4 bytes @ 0xE0002010) -- CPU_WriteMem(4 bytes @ 0xE0002014) -- CPU_WriteMem(4 bytes @ 0xE0002018) -- CPU_WriteMem(4 bytes @ 0xE000201C) (0009ms, 0991ms total)
T2900 002:468 JLINK_IsHalted()  returns FALSE (0001ms, 1000ms total)
T2900 002:519 JLINK_IsHalted() -- CPU_ReadMem(2 bytes @ 0x20000000)  returns TRUE (0007ms, 1000ms total)
T2900 002:526 JLINK_ReadReg(R15)  returns 0x20000000 (0000ms, 1000ms total)
T2900 002:526 JLINK_ClrBPEx(BPHandle = 0x0000000A)  returns 0x00 (0000ms, 1000ms total)
T2900 002:526 JLINK_ReadReg(R0)  returns 0x00000000 (0000ms, 1000ms total)
T2900 002:527 JLINK_WriteMem(0x20000180, 0x0400 Bytes, ...) -- Data:  3C 48 09 1D 08 60 08 1F 00 68 20 F4 80 20 09 1F ... -- CPU_WriteMem(1024 bytes @ 0x20000180)  returns 0x400 (0020ms, 1000ms total)
T2900 002:547 JLINK_WriteReg(R0, 0x08000400)  returns 0x00 (0000ms, 1020ms total)
T2900 002:547 JLINK_WriteReg(R1, 0x00000400)  returns 0x00 (0000ms, 1020ms total)
T2900 002:547 JLINK_WriteReg(R2, 0x20000180)  returns 0x00 (0000ms, 1020ms total)
T2900 002:547 JLINK_WriteReg(R3, 0x00000000)  returns 0x00 (0000ms, 1020ms total)
T2900 002:547 JLINK_WriteReg(R4, 0x00000000)  returns 0x00 (0000ms, 1020ms total)
T2900 002:547 JLINK_WriteReg(R5, 0x00000000)  returns 0x00 (0000ms, 1020ms total)
T2900 002:547 JLINK_WriteReg(R6, 0x00000000)  returns 0x00 (0000ms, 1020ms total)
T2900 002:547 JLINK_WriteReg(R7, 0x00000000)  returns 0x00 (0000ms, 1020ms total)
T2900 002:547 JLINK_WriteReg(R8, 0x00000000)  returns 0x00 (0000ms, 1020ms total)
T2900 002:547 JLINK_WriteReg(R9, 0x2000017C)  returns 0x00 (0000ms, 1020ms total)
T2900 002:547 JLINK_WriteReg(R10, 0x00000000)  returns 0x00 (0001ms, 1020ms total)
T2900 002:548 JLINK_WriteReg(R11, 0x00000000)  returns 0x00 (0000ms, 1021ms total)
T2900 002:548 JLINK_WriteReg(R12, 0x00000000)  returns 0x00 (0000ms, 1021ms total)
T2900 002:548 JLINK_WriteReg(R13, 0x20000800)  returns 0x00 (0000ms, 1021ms total)
T2900 002:548 JLINK_WriteReg(R14, 0x20000001)  returns 0x00 (0000ms, 1021ms total)
T2900 002:548 JLINK_WriteReg(R15, 0x20000108)  returns 0x00 (0000ms, 1021ms total)
T2900 002:548 JLINK_WriteReg(XPSR, 0x01000000)  returns 0x00 (0000ms, 1021ms total)
T2900 002:548 JLINK_WriteReg(MSP, 0x20000800)  returns 0x00 (0000ms, 1021ms total)
T2900 002:548 JLINK_WriteReg(PSP, 0x20000800)  returns 0x00 (0000ms, 1021ms total)
T2900 002:548 JLINK_WriteReg(CFBP, 0x00000000)  returns 0x00 (0000ms, 1021ms total)
T2900 002:548 JLINK_SetBPEx(Addr = 0x20000000, Type = 0xFFFFFFF2)  returns 0x0000000B (0000ms, 1021ms total)
T2900 002:548 JLINK_Go() -- CPU_WriteMem(4 bytes @ 0xE0002008) -- CPU_WriteMem(4 bytes @ 0xE000200C) -- CPU_WriteMem(4 bytes @ 0xE0002010) -- CPU_WriteMem(4 bytes @ 0xE0002014) -- CPU_WriteMem(4 bytes @ 0xE0002018) -- CPU_WriteMem(4 bytes @ 0xE000201C) (0009ms, 1021ms total)
T2900 002:557 JLINK_IsHalted()  returns FALSE (0001ms, 1030ms total)
T2900 002:608 JLINK_IsHalted() -- CPU_ReadMem(2 bytes @ 0x20000000)  returns TRUE (0007ms, 1030ms total)
T2900 002:615 JLINK_ReadReg(R15)  returns 0x20000000 (0000ms, 1030ms total)
T2900 002:615 JLINK_ClrBPEx(BPHandle = 0x0000000B)  returns 0x00 (0000ms, 1030ms total)
T2900 002:615 JLINK_ReadReg(R0)  returns 0x00000000 (0000ms, 1030ms total)
T2900 002:616 JLINK_WriteMem(0x20000180, 0x0400 Bytes, ...) -- Data:  80 62 82 60 70 47 21 B1 82 68 42 F0 02 02 82 60 ... -- CPU_WriteMem(1024 bytes @ 0x20000180)  returns 0x400 (0020ms, 1030ms total)
T2900 002:636 JLINK_WriteReg(R0, 0x08000800)  returns 0x00 (0000ms, 1050ms total)
T2900 002:636 JLINK_WriteReg(R1, 0x00000400)  returns 0x00 (0000ms, 1050ms total)
T2900 002:636 JLINK_WriteReg(R2, 0x20000180)  returns 0x00 (0000ms, 1050ms total)
T2900 002:636 JLINK_WriteReg(R3, 0x00000000)  returns 0x00 (0000ms, 1050ms total)
T2900 002:636 JLINK_WriteReg(R4, 0x00000000)  returns 0x00 (0000ms, 1050ms total)
T2900 002:636 JLINK_WriteReg(R5, 0x00000000)  returns 0x00 (0000ms, 1050ms total)
T2900 002:636 JLINK_WriteReg(R6, 0x00000000)  returns 0x00 (0000ms, 1050ms total)
T2900 002:636 JLINK_WriteReg(R7, 0x00000000)  returns 0x00 (0000ms, 1050ms total)
T2900 002:636 JLINK_WriteReg(R8, 0x00000000)  returns 0x00 (0000ms, 1050ms total)
T2900 002:636 JLINK_WriteReg(R9, 0x2000017C)  returns 0x00 (0000ms, 1050ms total)
T2900 002:636 JLINK_WriteReg(R10, 0x00000000)  returns 0x00 (0001ms, 1050ms total)
T2900 002:637 JLINK_WriteReg(R11, 0x00000000)  returns 0x00 (0000ms, 1051ms total)
T2900 002:637 JLINK_WriteReg(R12, 0x00000000)  returns 0x00 (0000ms, 1051ms total)
T2900 002:637 JLINK_WriteReg(R13, 0x20000800)  returns 0x00 (0000ms, 1051ms total)
T2900 002:637 JLINK_WriteReg(R14, 0x20000001)  returns 0x00 (0000ms, 1051ms total)
T2900 002:637 JLINK_WriteReg(R15, 0x20000108)  returns 0x00 (0000ms, 1051ms total)
T2900 002:637 JLINK_WriteReg(XPSR, 0x01000000)  returns 0x00 (0000ms, 1051ms total)
T2900 002:637 JLINK_WriteReg(MSP, 0x20000800)  returns 0x00 (0000ms, 1051ms total)
T2900 002:637 JLINK_WriteReg(PSP, 0x20000800)  returns 0x00 (0000ms, 1051ms total)
T2900 002:637 JLINK_WriteReg(CFBP, 0x00000000)  returns 0x00 (0000ms, 1051ms total)
T2900 002:637 JLINK_SetBPEx(Addr = 0x20000000, Type = 0xFFFFFFF2)  returns 0x0000000C (0000ms, 1051ms total)
T2900 002:637 JLINK_Go() -- CPU_WriteMem(4 bytes @ 0xE0002008) -- CPU_WriteMem(4 bytes @ 0xE000200C) -- CPU_WriteMem(4 bytes @ 0xE0002010) -- CPU_WriteMem(4 bytes @ 0xE0002014) -- CPU_WriteMem(4 bytes @ 0xE0002018) -- CPU_WriteMem(4 bytes @ 0xE000201C) (0009ms, 1051ms total)
T2900 002:646 JLINK_IsHalted()  returns FALSE (0001ms, 1060ms total)
T2900 002:697 JLINK_IsHalted() -- CPU_ReadMem(2 bytes @ 0x20000000)  returns TRUE (0007ms, 1060ms total)
T2900 002:704 JLINK_ReadReg(R15)  returns 0x20000000 (0000ms, 1060ms total)
T2900 002:704 JLINK_ClrBPEx(BPHandle = 0x0000000C)  returns 0x00 (0000ms, 1060ms total)
T2900 002:704 JLINK_ReadReg(R0)  returns 0x00000000 (0000ms, 1060ms total)
T2900 002:705 JLINK_WriteMem(0x20000180, 0x0400 Bytes, ...) -- Data:  42 6B 92 68 41 EA 02 21 42 6B D2 68 41 EA 02 41 ... -- CPU_WriteMem(1024 bytes @ 0x20000180)  returns 0x400 (0020ms, 1060ms total)
T2900 002:725 JLINK_WriteReg(R0, 0x08000C00)  returns 0x00 (0000ms, 1080ms total)
T2900 002:725 JLINK_WriteReg(R1, 0x00000400)  returns 0x00 (0000ms, 1080ms total)
T2900 002:725 JLINK_WriteReg(R2, 0x20000180)  returns 0x00 (0000ms, 1080ms total)
T2900 002:725 JLINK_WriteReg(R3, 0x00000000)  returns 0x00 (0000ms, 1080ms total)
T2900 002:725 JLINK_WriteReg(R4, 0x00000000)  returns 0x00 (0000ms, 1080ms total)
T2900 002:725 JLINK_WriteReg(R5, 0x00000000)  returns 0x00 (0000ms, 1080ms total)
T2900 002:725 JLINK_WriteReg(R6, 0x00000000)  returns 0x00 (0000ms, 1080ms total)
T2900 002:725 JLINK_WriteReg(R7, 0x00000000)  returns 0x00 (0000ms, 1080ms total)
T2900 002:725 JLINK_WriteReg(R8, 0x00000000)  returns 0x00 (0000ms, 1080ms total)
T2900 002:725 JLINK_WriteReg(R9, 0x2000017C)  returns 0x00 (0000ms, 1080ms total)
T2900 002:725 JLINK_WriteReg(R10, 0x00000000)  returns 0x00 (0000ms, 1080ms total)
T2900 002:725 JLINK_WriteReg(R11, 0x00000000)  returns 0x00 (0001ms, 1080ms total)
T2900 002:726 JLINK_WriteReg(R12, 0x00000000)  returns 0x00 (0000ms, 1081ms total)
T2900 002:726 JLINK_WriteReg(R13, 0x20000800)  returns 0x00 (0000ms, 1081ms total)
T2900 002:726 JLINK_WriteReg(R14, 0x20000001)  returns 0x00 (0000ms, 1081ms total)
T2900 002:726 JLINK_WriteReg(R15, 0x20000108)  returns 0x00 (0000ms, 1081ms total)
T2900 002:726 JLINK_WriteReg(XPSR, 0x01000000)  returns 0x00 (0000ms, 1081ms total)
T2900 002:726 JLINK_WriteReg(MSP, 0x20000800)  returns 0x00 (0000ms, 1081ms total)
T2900 002:726 JLINK_WriteReg(PSP, 0x20000800)  returns 0x00 (0000ms, 1081ms total)
T2900 002:726 JLINK_WriteReg(CFBP, 0x00000000)  returns 0x00 (0000ms, 1081ms total)
T2900 002:726 JLINK_SetBPEx(Addr = 0x20000000, Type = 0xFFFFFFF2)  returns 0x0000000D (0000ms, 1081ms total)
T2900 002:726 JLINK_Go() -- CPU_WriteMem(4 bytes @ 0xE0002008) -- CPU_WriteMem(4 bytes @ 0xE000200C) -- CPU_WriteMem(4 bytes @ 0xE0002010) -- CPU_WriteMem(4 bytes @ 0xE0002014) -- CPU_WriteMem(4 bytes @ 0xE0002018) -- CPU_WriteMem(4 bytes @ 0xE000201C) (0009ms, 1081ms total)
T2900 002:739 JLINK_IsHalted() -- CPU_ReadMem(2 bytes @ 0x20000000)  returns TRUE (0008ms, 1094ms total)
T2900 002:747 JLINK_ReadReg(R15)  returns 0x20000000 (0000ms, 1094ms total)
T2900 002:747 JLINK_ClrBPEx(BPHandle = 0x0000000D)  returns 0x00 (0000ms, 1094ms total)
T2900 002:747 JLINK_ReadReg(R0)  returns 0x00000000 (0000ms, 1094ms total)
T2900 002:748 JLINK_WriteMem(0x20000180, 0x0400 Bytes, ...) -- Data:  08 D1 47 4B 1B 68 43 EA 01 03 4F F0 20 44 C4 F8 ... -- CPU_WriteMem(1024 bytes @ 0x20000180)  returns 0x400 (0020ms, 1094ms total)
T2900 002:768 JLINK_WriteReg(R0, 0x08001000)  returns 0x00 (0000ms, 1114ms total)
T2900 002:768 JLINK_WriteReg(R1, 0x00000400)  returns 0x00 (0000ms, 1114ms total)
T2900 002:768 JLINK_WriteReg(R2, 0x20000180)  returns 0x00 (0000ms, 1114ms total)
T2900 002:768 JLINK_WriteReg(R3, 0x00000000)  returns 0x00 (0000ms, 1114ms total)
T2900 002:768 JLINK_WriteReg(R4, 0x00000000)  returns 0x00 (0000ms, 1114ms total)
T2900 002:768 JLINK_WriteReg(R5, 0x00000000)  returns 0x00 (0000ms, 1114ms total)
T2900 002:768 JLINK_WriteReg(R6, 0x00000000)  returns 0x00 (0000ms, 1114ms total)
T2900 002:768 JLINK_WriteReg(R7, 0x00000000)  returns 0x00 (0000ms, 1114ms total)
T2900 002:768 JLINK_WriteReg(R8, 0x00000000)  returns 0x00 (0000ms, 1114ms total)
T2900 002:768 JLINK_WriteReg(R9, 0x2000017C)  returns 0x00 (0001ms, 1114ms total)
T2900 002:769 JLINK_WriteReg(R10, 0x00000000)  returns 0x00 (0000ms, 1115ms total)
T2900 002:769 JLINK_WriteReg(R11, 0x00000000)  returns 0x00 (0000ms, 1115ms total)
T2900 002:769 JLINK_WriteReg(R12, 0x00000000)  returns 0x00 (0000ms, 1115ms total)
T2900 002:769 JLINK_WriteReg(R13, 0x20000800)  returns 0x00 (0000ms, 1115ms total)
T2900 002:769 JLINK_WriteReg(R14, 0x20000001)  returns 0x00 (0000ms, 1115ms total)
T2900 002:769 JLINK_WriteReg(R15, 0x20000108)  returns 0x00 (0000ms, 1115ms total)
T2900 002:769 JLINK_WriteReg(XPSR, 0x01000000)  returns 0x00 (0000ms, 1115ms total)
T2900 002:769 JLINK_WriteReg(MSP, 0x20000800)  returns 0x00 (0000ms, 1115ms total)
T2900 002:769 JLINK_WriteReg(PSP, 0x20000800)  returns 0x00 (0000ms, 1115ms total)
T2900 002:769 JLINK_WriteReg(CFBP, 0x00000000)  returns 0x00 (0000ms, 1115ms total)
T2900 002:769 JLINK_SetBPEx(Addr = 0x20000000, Type = 0xFFFFFFF2)  returns 0x0000000E (0000ms, 1115ms total)
T2900 002:769 JLINK_Go() -- CPU_WriteMem(4 bytes @ 0xE0002008) -- CPU_WriteMem(4 bytes @ 0xE000200C) -- CPU_WriteMem(4 bytes @ 0xE0002010) -- CPU_WriteMem(4 bytes @ 0xE0002014) -- CPU_WriteMem(4 bytes @ 0xE0002018) -- CPU_WriteMem(4 bytes @ 0xE000201C) (0010ms, 1115ms total)
T2900 002:779 JLINK_IsHalted()  returns FALSE (0001ms, 1125ms total)
T2900 002:830 JLINK_IsHalted() -- CPU_ReadMem(2 bytes @ 0x20000000)  returns TRUE (0007ms, 1125ms total)
T2900 002:837 JLINK_ReadReg(R15)  returns 0x20000000 (0000ms, 1125ms total)
T2900 002:837 JLINK_ClrBPEx(BPHandle = 0x0000000E)  returns 0x00 (0000ms, 1125ms total)
T2900 002:837 JLINK_ReadReg(R0)  returns 0x00000000 (0000ms, 1125ms total)
T2900 002:838 JLINK_WriteMem(0x20000180, 0x0400 Bytes, ...) -- Data:  00 68 20 F4 80 20 09 1F 08 60 00 20 ED 49 0C 31 ... -- CPU_WriteMem(1024 bytes @ 0x20000180)  returns 0x400 (0020ms, 1125ms total)
T2900 002:858 JLINK_WriteReg(R0, 0x08001400)  returns 0x00 (0000ms, 1145ms total)
T2900 002:858 JLINK_WriteReg(R1, 0x00000400)  returns 0x00 (0000ms, 1145ms total)
T2900 002:858 JLINK_WriteReg(R2, 0x20000180)  returns 0x00 (0000ms, 1145ms total)
T2900 002:858 JLINK_WriteReg(R3, 0x00000000)  returns 0x00 (0000ms, 1145ms total)
T2900 002:858 JLINK_WriteReg(R4, 0x00000000)  returns 0x00 (0000ms, 1145ms total)
T2900 002:858 JLINK_WriteReg(R5, 0x00000000)  returns 0x00 (0000ms, 1145ms total)
T2900 002:858 JLINK_WriteReg(R6, 0x00000000)  returns 0x00 (0000ms, 1145ms total)
T2900 002:858 JLINK_WriteReg(R7, 0x00000000)  returns 0x00 (0000ms, 1145ms total)
T2900 002:858 JLINK_WriteReg(R8, 0x00000000)  returns 0x00 (0000ms, 1145ms total)
T2900 002:858 JLINK_WriteReg(R9, 0x2000017C)  returns 0x00 (0000ms, 1145ms total)
T2900 002:858 JLINK_WriteReg(R10, 0x00000000)  returns 0x00 (0001ms, 1145ms total)
T2900 002:859 JLINK_WriteReg(R11, 0x00000000)  returns 0x00 (0000ms, 1146ms total)
T2900 002:859 JLINK_WriteReg(R12, 0x00000000)  returns 0x00 (0000ms, 1146ms total)
T2900 002:859 JLINK_WriteReg(R13, 0x20000800)  returns 0x00 (0000ms, 1146ms total)
T2900 002:859 JLINK_WriteReg(R14, 0x20000001)  returns 0x00 (0000ms, 1146ms total)
T2900 002:859 JLINK_WriteReg(R15, 0x20000108)  returns 0x00 (0000ms, 1146ms total)
T2900 002:859 JLINK_WriteReg(XPSR, 0x01000000)  returns 0x00 (0000ms, 1146ms total)
T2900 002:859 JLINK_WriteReg(MSP, 0x20000800)  returns 0x00 (0000ms, 1146ms total)
T2900 002:859 JLINK_WriteReg(PSP, 0x20000800)  returns 0x00 (0000ms, 1146ms total)
T2900 002:859 JLINK_WriteReg(CFBP, 0x00000000)  returns 0x00 (0000ms, 1146ms total)
T2900 002:859 JLINK_SetBPEx(Addr = 0x20000000, Type = 0xFFFFFFF2)  returns 0x0000000F (0000ms, 1146ms total)
T2900 002:859 JLINK_Go() -- CPU_WriteMem(4 bytes @ 0xE0002008) -- CPU_WriteMem(4 bytes @ 0xE000200C) -- CPU_WriteMem(4 bytes @ 0xE0002010) -- CPU_WriteMem(4 bytes @ 0xE0002014) -- CPU_WriteMem(4 bytes @ 0xE0002018) -- CPU_WriteMem(4 bytes @ 0xE000201C) (0009ms, 1146ms total)
T2900 002:868 JLINK_IsHalted()  returns FALSE (0001ms, 1155ms total)
T2900 002:919 JLINK_IsHalted() -- CPU_ReadMem(2 bytes @ 0x20000000)  returns TRUE (0007ms, 1155ms total)
T2900 002:926 JLINK_ReadReg(R15)  returns 0x20000000 (0000ms, 1155ms total)
T2900 002:926 JLINK_ClrBPEx(BPHandle = 0x0000000F)  returns 0x00 (0000ms, 1155ms total)
T2900 002:926 JLINK_ReadReg(R0)  returns 0x00000000 (0000ms, 1155ms total)
T2900 002:927 JLINK_WriteMem(0x20000180, 0x0400 Bytes, ...) -- Data:  52 4B 1A 60 70 47 39 B1 50 4A 08 32 12 68 02 43 ... -- CPU_WriteMem(1024 bytes @ 0x20000180)  returns 0x400 (0020ms, 1155ms total)
T2900 002:947 JLINK_WriteReg(R0, 0x08001800)  returns 0x00 (0000ms, 1175ms total)
T2900 002:947 JLINK_WriteReg(R1, 0x00000400)  returns 0x00 (0000ms, 1175ms total)
T2900 002:947 JLINK_WriteReg(R2, 0x20000180)  returns 0x00 (0000ms, 1175ms total)
T2900 002:947 JLINK_WriteReg(R3, 0x00000000)  returns 0x00 (0000ms, 1175ms total)
T2900 002:947 JLINK_WriteReg(R4, 0x00000000)  returns 0x00 (0000ms, 1175ms total)
T2900 002:947 JLINK_WriteReg(R5, 0x00000000)  returns 0x00 (0000ms, 1175ms total)
T2900 002:947 JLINK_WriteReg(R6, 0x00000000)  returns 0x00 (0000ms, 1175ms total)
T2900 002:947 JLINK_WriteReg(R7, 0x00000000)  returns 0x00 (0000ms, 1175ms total)
T2900 002:947 JLINK_WriteReg(R8, 0x00000000)  returns 0x00 (0000ms, 1175ms total)
T2900 002:947 JLINK_WriteReg(R9, 0x2000017C)  returns 0x00 (0000ms, 1175ms total)
T2900 002:947 JLINK_WriteReg(R10, 0x00000000)  returns 0x00 (0001ms, 1175ms total)
T2900 002:948 JLINK_WriteReg(R11, 0x00000000)  returns 0x00 (0000ms, 1176ms total)
T2900 002:948 JLINK_WriteReg(R12, 0x00000000)  returns 0x00 (0000ms, 1176ms total)
T2900 002:948 JLINK_WriteReg(R13, 0x20000800)  returns 0x00 (0000ms, 1176ms total)
T2900 002:948 JLINK_WriteReg(R14, 0x20000001)  returns 0x00 (0000ms, 1176ms total)
T2900 002:948 JLINK_WriteReg(R15, 0x20000108)  returns 0x00 (0000ms, 1176ms total)
T2900 002:948 JLINK_WriteReg(XPSR, 0x01000000)  returns 0x00 (0000ms, 1176ms total)
T2900 002:948 JLINK_WriteReg(MSP, 0x20000800)  returns 0x00 (0000ms, 1176ms total)
T2900 002:948 JLINK_WriteReg(PSP, 0x20000800)  returns 0x00 (0000ms, 1176ms total)
T2900 002:948 JLINK_WriteReg(CFBP, 0x00000000)  returns 0x00 (0000ms, 1176ms total)
T2900 002:948 JLINK_SetBPEx(Addr = 0x20000000, Type = 0xFFFFFFF2)  returns 0x00000010 (0000ms, 1176ms total)
T2900 002:948 JLINK_Go() -- CPU_WriteMem(4 bytes @ 0xE0002008) -- CPU_WriteMem(4 bytes @ 0xE000200C) -- CPU_WriteMem(4 bytes @ 0xE0002010) -- CPU_WriteMem(4 bytes @ 0xE0002014) -- CPU_WriteMem(4 bytes @ 0xE0002018) -- CPU_WriteMem(4 bytes @ 0xE000201C) (0009ms, 1176ms total)
T2900 002:957 JLINK_IsHalted()  returns FALSE (0001ms, 1185ms total)
T2900 003:008 JLINK_IsHalted() -- CPU_ReadMem(2 bytes @ 0x20000000)  returns TRUE (0007ms, 1185ms total)
T2900 003:015 JLINK_ReadReg(R15)  returns 0x20000000 (0000ms, 1185ms total)
T2900 003:015 JLINK_ClrBPEx(BPHandle = 0x00000010)  returns 0x00 (0000ms, 1185ms total)
T2900 003:015 JLINK_ReadReg(R0)  returns 0x00000000 (0000ms, 1185ms total)
T2900 003:016 JLINK_WriteMem(0x20000180, 0x0400 Bytes, ...) -- Data:  82 80 70 47 30 B5 00 22 00 23 84 8B 4F F2 40 05 ... -- CPU_WriteMem(1024 bytes @ 0x20000180)  returns 0x400 (0020ms, 1185ms total)
T2900 003:037 JLINK_WriteReg(R0, 0x08001C00)  returns 0x00 (0001ms, 1205ms total)
T2900 003:038 JLINK_WriteReg(R1, 0x00000400)  returns 0x00 (0000ms, 1206ms total)
T2900 003:038 JLINK_WriteReg(R2, 0x20000180)  returns 0x00 (0000ms, 1206ms total)
T2900 003:038 JLINK_WriteReg(R3, 0x00000000)  returns 0x00 (0000ms, 1206ms total)
T2900 003:038 JLINK_WriteReg(R4, 0x00000000)  returns 0x00 (0000ms, 1206ms total)
T2900 003:038 JLINK_WriteReg(R5, 0x00000000)  returns 0x00 (0000ms, 1206ms total)
T2900 003:038 JLINK_WriteReg(R6, 0x00000000)  returns 0x00 (0000ms, 1206ms total)
T2900 003:038 JLINK_WriteReg(R7, 0x00000000)  returns 0x00 (0000ms, 1206ms total)
T2900 003:038 JLINK_WriteReg(R8, 0x00000000)  returns 0x00 (0000ms, 1206ms total)
T2900 003:038 JLINK_WriteReg(R9, 0x2000017C)  returns 0x00 (0000ms, 1206ms total)
T2900 003:038 JLINK_WriteReg(R10, 0x00000000)  returns 0x00 (0000ms, 1206ms total)
T2900 003:038 JLINK_WriteReg(R11, 0x00000000)  returns 0x00 (0000ms, 1206ms total)
T2900 003:038 JLINK_WriteReg(R12, 0x00000000)  returns 0x00 (0000ms, 1206ms total)
T2900 003:038 JLINK_WriteReg(R13, 0x20000800)  returns 0x00 (0000ms, 1206ms total)
